(1734396280.495621) vcan0 244#00000001CD
(1734396280.515551) vcan0 244#00000001A5
(1734396280.517571) vcan0 13A#0000000000000019
(1734396280.517738) vcan0 13F#000000050000001F
(1734396280.517749) vcan0 164#0000C01AA8000031
(1734396280.517757) vcan0 17C#0000000010000012
(1734396280.517764) vcan0 18E#00005C
(1734396280.517772) vcan0 039#0039
(1734396280.517781) vcan0 183#0000000C0000101E
(1734396280.517789) vcan0 143#6B6B00D1
(1734396280.517798) vcan0 095#800007F400000008
(1734396280.517806) vcan0 166#D0320018
(1734396280.517816) vcan0 158#0000000000000019
(1734396280.517828) vcan0 161#000005500108001C
(1734396280.517835) vcan0 191#010090A1410003
(1734396280.517842) vcan0 164#0000C01AA8000004
(1734396280.517871) vcan0 133#00000000A7
(1734396280.517886) vcan0 136#000200000000002A
(1734396280.517894) vcan0 13A#0000000000000028
(1734396280.517901) vcan0 13F#000000050000002E
(1734396280.517909) vcan0 17C#0000000010000021
(1734396280.517918) vcan0 18E#00006B
(1734396280.517926) vcan0 1CF#80050000001E
(1734396280.517934) vcan0 1DC#0200001B
(1734396280.517941) vcan0 320#000012
(1734396280.518483) vcan0 324#7465000000000E1A
(1734396280.518621) vcan0 37C#FD00FD00097F001A
(1734396280.518630) vcan0 183#0000001000001028
(1734396280.518637) vcan0 143#6B6B00E0
(1734396280.518646) vcan0 095#800007F400000017
(1734396280.518653) vcan0 1A4#000000080000003E
(1734396280.518660) vcan0 1AA#7FFF00000000673F
(1734396280.518667) vcan0 1B0#000F0000000175
(1734396280.518674) vcan0 1D0#000000000000000A
(1734396280.518681) vcan0 166#D0320027
(1734396280.518688) vcan0 158#0000000000000028
(1734396280.518695) vcan0 161#000005500108002B
(1734396280.518702) vcan0 191#010090A1410012
(1734396280.518711) vcan0 133#00000000B6
(1734396280.518718) vcan0 136#0002000000000039
(1734396280.518725) vcan0 13A#0000000000000037
(1734396280.518734) vcan0 13F#000000050000003D
(1734396280.518744) vcan0 164#0000C01AA8000013
(1734396280.518751) vcan0 17C#0000000010000030
(1734396280.518758) vcan0 18E#00007A
(1734396280.518764) vcan0 294#040B0002CF5A001D
(1734396280.518771) vcan0 039#000C
(1734396280.518778) vcan0 21E#03E83745220610
(1734396280.518785) vcan0 183#0000000C0000103C
(1734396280.518792) vcan0 143#6B6B00FF
(1734396280.518801) vcan0 095#800007F400000026
(1734396280.518808) vcan0 166#D0320036
(1734396280.518814) vcan0 158#0000000000000037
(1734396280.518843) vcan0 161#000005500108003A
(1734396280.518857) vcan0 191#010090A1410021
(1734396280.518865) vcan0 164#0000C01AA8000022
(1734396280.518871) vcan0 133#0000000089
(1734396280.518880) vcan0 136#000200000000000C
(1734396280.518889) vcan0 13A#000000000000000A
(1734396280.521698) vcan0 13F#0000000500000000
(1734396280.521908) vcan0 188#00000000
(1734396280.521846) vcan0 17C#0000000010000003
(1734396280.521866) vcan0 18E#00004D
(1734396280.521875) vcan0 1CF#80050000002D
(1734396280.521882) vcan0 1DC#0200002A
(1734396280.521890) vcan0 183#0000000900001002
(1734396280.521897) vcan0 143#6B6B00C2
(1734396280.525126) vcan0 305#8026
(1734396280.525264) vcan0 095#800007F400000035
(1734396280.525274) vcan0 1A4#0000000800000001
(1734396280.525282) vcan0 1AA#7FFF000000006801
(1734396280.525290) vcan0 1B0#000F0000000148
(1734396280.525298) vcan0 1D0#000000000000000A
(1734396280.526800) vcan0 166#D0320009
(1734396280.527722) vcan0 244#00000001F2
(1734396280.528721) vcan0 158#000000000000000A
(1734396280.528896) vcan0 161#000005500108000D
(1734396280.528908) vcan0 191#010090A1410030
(1734396280.528917) vcan0 164#0000C01AA8000031
(1734396280.528926) vcan0 133#0000000098
(1734396280.528935) vcan0 136#000200000000001B
(1734396280.528943) vcan0 13A#0000000000000019
(1734396280.530381) vcan0 13F#000000050000001F
(1734396280.530528) vcan0 17C#0000000010000012
(1734396280.530538) vcan0 18E#00005C
(1734396280.530611) vcan0 309#00000000000000A2
(1734396280.533870) vcan0 039#001B
(1734396280.534004) vcan0 183#0000000600001014
(1734396280.534014) vcan0 143#6B6B00D1
(1734396280.534021) vcan0 095#800007F400000008
(1734396280.536631) vcan0 166#D0320018
(1734396280.538744) vcan0 244#11223344
(1734396280.539332) vcan0 158#0000000000000019
(1734396280.539511) vcan0 161#000005500108001C
(1734396280.539524) vcan0 191#010090A1410003
(1734396280.539532) vcan0 133#00000000A7
(1734396280.539540) vcan0 136#000200000000002A
(1734396280.539548) vcan0 13A#0000000000000028
(1734396280.539555) vcan0 13F#000000050000002E
(1734396280.539577) vcan0 164#0000C01AA8000004
(1734396280.539592) vcan0 17C#0000000010000021
(1734396280.539605) vcan0 18E#00006B
(1734396280.540468) vcan0 244#0000000184
(1734396280.541107) vcan0 1CF#80050000003C
(1734396280.541121) vcan0 1DC#02000039
(1734396280.541127) vcan0 183#0000000C0000102D
(1734396280.543054) vcan0 143#6B6B00E0
(1734396280.544826) vcan0 095#800007F400000017
(1734396280.544847) vcan0 1A4#0000000800000010
(1734396280.544853) vcan0 1AA#7FFF000000006810
(1734396280.544858) vcan0 1B0#000F0000000157
(1734396280.544862) vcan0 039#002A
(1734396280.550831) vcan0 1D0#000000000000000A
(1734396280.550885) vcan0 166#D0320027
(1734396280.550895) vcan0 158#0000000000000028
(1734396280.550900) vcan0 161#000005500108002B
(1734396280.550906) vcan0 191#010090A1410012
(1734396280.550910) vcan0 133#00000000B6
(1734396280.550915) vcan0 136#0002000000000039
(1734396280.550921) vcan0 13A#0000000000000037
(1734396280.550926) vcan0 13F#000000050000003D
(1734396280.550930) vcan0 164#0000C01AA8000013
(1734396280.550935) vcan0 17C#0000000010000030
(1734396280.550940) vcan0 18E#00007A
(1734396280.550947) vcan0 294#040B0002CF5A002C
(1734396280.550953) vcan0 21E#03E8374522062F
(1734396280.550958) vcan0 183#0000001000001037
(1734396280.552888) vcan0 143#6B6B00FF
(1734396280.554165) vcan0 244#0000000157
(1734396280.554779) vcan0 095#800007F400000026
(1734396280.557536) vcan0 166#D0320036
(1734396280.557680) vcan0 158#0000000000000037
(1734396280.557689) vcan0 161#000005500108003A
(1734396280.558907) vcan0 191#010090A1410021
(1734396280.558939) vcan0 164#0000C01AA8000022
(1734396280.558947) vcan0 133#0000000089
(1734396280.558954) vcan0 136#000200000000000C
(1734396280.558962) vcan0 13A#000000000000000A
(1734396280.561049) vcan0 13F#0000000500000000
(1734396280.561280) vcan0 17C#0000000010000003
(1734396280.561293) vcan0 18E#00004D
(1734396280.561302) vcan0 1CF#80050000000F
(1734396280.561309) vcan0 039#0039
(1734396280.561316) vcan0 1DC#0200000C
(1734396280.561323) vcan0 183#0000000C0000100F
(1734396280.566324) vcan0 143#6B6B00C2
(1734396280.566584) vcan0 095#800007F400000035
(1734396280.566613) vcan0 1A4#000000080000002F
(1734396280.566633) vcan0 1AA#7FFF00000000682F
(1734396280.566656) vcan0 1B0#000F0000000166
(1734396280.566675) vcan0 1D0#000000000000000A
(1734396280.566691) vcan0 166#D0320009
(1734396280.567136) vcan0 244#000000012E
(1734396280.568155) vcan0 100#FFFFFFFF
(1734396280.569362) vcan0 158#000000000000000A
(1734396280.569470) vcan0 161#000005500108000D
(1734396280.569477) vcan0 191#010090A1410030
(1734396280.569483) vcan0 133#0000000098
(1734396280.569488) vcan0 136#000200000000001B
(1734396280.569493) vcan0 13A#0000000000000019
(1734396280.569498) vcan0 13F#000000050000001F
(1734396280.569502) vcan0 164#0000C01AA8000031
(1734396280.569506) vcan0 17C#0000000010000012
(1734396280.569511) vcan0 18E#00005C
(1734396280.573602) vcan0 183#0000001000001019
(1734396280.575363) vcan0 143#6B6B00D1
(1734396280.575379) vcan0 039#000C
(1734396280.575395) vcan0 095#800007F400000008
(1734396280.578316) vcan0 244#00000001A1
(1734396280.579238) vcan0 166#D0320018
(1734396280.579257) vcan0 158#0000000000000019
(1734396280.579262) vcan0 161#000005500108001C
(1734396280.579268) vcan0 191#010090A1410003
(1734396280.579273) vcan0 164#0000C01AA8000004
(1734396280.579278) vcan0 133#00000000A7
(1734396280.579282) vcan0 136#000200000000002A
(1734396280.579289) vcan0 13A#0000000000000028
(1734396280.579293) vcan0 13F#000000050000002E
(1734396280.581605) vcan0 17C#0000000010000021
(1734396280.581622) vcan0 18E#00006B
(1734396280.581628) vcan0 1CF#80050000001E
(1734396280.581633) vcan0 1DC#0200001B
(1734396280.581640) vcan0 183#0000000C0000102D
(1734396280.581644) vcan0 143#6B6B00E0
(1734396280.583259) vcan0 333#0000000000002D
(1734396280.584807) vcan0 095#800007F400000017
(1734396280.584839) vcan0 1A4#000000080000003E
(1734396280.584851) vcan0 1AA#7FFF00000000673F
(1734396280.584860) vcan0 1B0#000F0000000175
(1734396280.586728) vcan0 1D0#000000000000000A
(1734396280.586912) vcan0 166#D0320027
(1734396280.588488) vcan0 158#0000000000000028
(1734396280.588642) vcan0 161#000005500108002B
(1734396280.588654) vcan0 191#010090A1410012
(1734396280.588662) vcan0 133#00000000B6
(1734396280.588671) vcan0 136#0002000000000039
(1734396280.588679) vcan0 13A#0000000000000037
(1734396280.595261) vcan0 13F#000000050000003D
(1734396280.595322) vcan0 164#0000C01AA8000013
(1734396280.595335) vcan0 17C#0000000010000030
(1734396280.595348) vcan0 18E#00007A
(1734396280.595357) vcan0 294#040B0002CF5A003B
(1734396280.595365) vcan0 21E#03E8374522063E
(1734396280.595375) vcan0 183#000000090000103F
(1734396280.595385) vcan0 143#6B6B00FF
(1734396280.595393) vcan0 039#001B
(1734396280.595402) vcan0 095#800007F400000026
(1734396280.596675) vcan0 166#D0320036
(1734396280.597059) vcan0 244#00000001B2
(1734396280.599135) vcan0 158#0000000000000037
(1734396280.599287) vcan0 161#000005500108003A
(1734396280.599297) vcan0 191#010090A1410021
(1734396280.599304) vcan0 164#0000C01AA8000022
(1734396280.599312) vcan0 133#0000000089
(1734396280.599318) vcan0 136#000200000000000C
(1734396280.599325) vcan0 13A#000000000000000A
(1734396280.599332) vcan0 13F#0000000500000000
(1734396280.599338) vcan0 17C#0000000010000003
(1734396280.600753) vcan0 18E#00004D
(1734396280.600782) vcan0 1CF#80050000002D
(1734396280.600791) vcan0 1DC#0200002A
(1734396280.600798) vcan0 320#000021
(1734396280.600807) vcan0 324#7465000000000E29
(1734396280.600816) vcan0 183#0000000E0000100D
(1734396280.600823) vcan0 37C#FD00FD00097F0029
(1734396280.602755) vcan0 40C#014A484D46413325
(1734396280.602798) vcan0 454#23EF27
(1734396280.602808) vcan0 143#6B6B00C2
(1734396280.604665) vcan0 095#800007F400000035
(1734396280.604692) vcan0 1A4#0000000800000001
(1734396280.604702) vcan0 1AA#7FFF000000006801
(1734396280.604709) vcan0 1B0#000F0000000148
(1734396280.606546) vcan0 1D0#000000000000000A
(1734396280.606801) vcan0 166#D0320009
(1734396280.608076) vcan0 158#000000000000000A
(1734396280.609156) vcan0 161#000005500108000D
(1734396280.609173) vcan0 191#010090A1410030
(1734396280.609182) vcan0 133#0000000098
(1734396280.609189) vcan0 136#000200000000001B
(1734396280.609196) vcan0 13A#0000000000000019
(1734396280.609204) vcan0 13F#000000050000001F
(1734396280.609211) vcan0 164#0000C01AA8000031
(1734396280.612433) vcan0 17C#0000000010000012
(1734396280.612471) vcan0 18E#00005C
(1734396280.612481) vcan0 183#0000000A00001010
(1734396280.612863) vcan0 143#6B6B00D1
(1734396280.613152) vcan0 244#0000000172
(1734396280.614177) vcan0 095#800007F400000008
(1734396280.614313) vcan0 039#002A
(1734396280.619447) vcan0 166#D0320018
(1734396280.619587) vcan0 158#0000000000000019
(1734396280.619596) vcan0 161#000005500108001C
(1734396280.619601) vcan0 191#010090A1410003
(1734396280.619606) vcan0 164#0000C01AA8000004
(1734396280.619611) vcan0 133#00000000A7
(1734396280.619615) vcan0 136#000200000000002A
(1734396280.619621) vcan0 13A#0000000000000028
(1734396280.619626) vcan0 13F#000000050000002E
(1734396280.619653) vcan0 17C#0000000010000021
(1734396280.619665) vcan0 18E#00006B
(1734396280.619670) vcan0 1CF#80050000003C
(1734396280.620957) vcan0 1DC#02000039
(1734396280.620974) vcan0 183#0000000700001022
(1734396280.622530) vcan0 143#6B6B00E0
(1734396280.623875) vcan0 095#800007F400000017
(1734396280.624613) vcan0 244#00000001F1
(1734396280.625323) vcan0 1A4#0000000800000010
(1734396280.625477) vcan0 1AA#7FFF000000006810
(1734396280.625539) vcan0 1B0#000F0000000157
(1734396280.625552) vcan0 1D0#000000000000000A
(1734396280.626778) vcan0 166#D0320027
(1734396280.626931) vcan0 039#0039
(1734396280.628494) vcan0 158#0000000000000028
(1734396280.628651) vcan0 161#000005500108002B
(1734396280.628665) vcan0 191#010090A1410012
(1734396280.628673) vcan0 305#8035
(1734396280.628681) vcan0 164#0000C01AA8000013
(1734396280.628689) vcan0 133#00000000B6
(1734396280.628697) vcan0 136#0002000000000039
(1734396280.630805) vcan0 13A#0000000000000037
(1734396280.630856) vcan0 13F#000000050000003D
(1734396280.630869) vcan0 17C#0000000010000030
(1734396280.630879) vcan0 18E#00007A
(1734396280.630887) vcan0 294#040B0002CF5A000E
(1734396280.630895) vcan0 21E#03E83745220601
(1734396280.630904) vcan0 309#00000000000000B1
(1734396280.630915) vcan0 428#01040000521C3E
(1734396280.630927) vcan0 405#0000040000000038
(1734396280.632735) vcan0 183#0000000D0000103B
(1734396280.632768) vcan0 143#6B6B00FF
(1734396280.634121) vcan0 095#800007F400000026
(1734396280.636376) vcan0 244#00000001EC
(1734396280.637010) vcan0 166#D0320036
(1734396280.638421) vcan0 158#0000000000000037
(1734396280.638440) vcan0 161#000005500108003A
(1734396280.638445) vcan0 191#010090A1410021
(1734396280.638451) vcan0 164#0000C01AA8000022
(1734396280.638463) vcan0 133#0000000089
(1734396280.642059) vcan0 136#000200000000000C
(1734396280.642083) vcan0 13A#000000000000000A
(1734396280.642088) vcan0 13F#0000000500000000
(1734396280.642093) vcan0 17C#0000000010000003
(1734396280.642132) vcan0 18E#00004D
(1734396280.642149) vcan0 1CF#80050000000F
(1734396280.642164) vcan0 1DC#0200000C
(1734396280.642171) vcan0 183#0000000900001002
(1734396280.642177) vcan0 039#000C
(1734396280.642181) vcan0 143#6B6B00C2
(1734396280.643593) vcan0 095#800007F400000035
(1734396280.645190) vcan0 1A4#000000080000002F
(1734396280.645240) vcan0 1AA#7FFF00000000682F
(1734396280.645256) vcan0 1B0#000F0000000166
(1734396280.645266) vcan0 1D0#000000000000000A
(1734396280.647368) vcan0 166#D0320009
(1734396280.647412) vcan0 158#000000000000000A
(1734396280.649000) vcan0 161#000005500108000D
(1734396280.649026) vcan0 191#010090A1410030
(1734396280.649034) vcan0 18E#00005C
(1734396280.649042) vcan0 133#0000000098
(1734396280.649050) vcan0 136#000200000000001B
(1734396280.649057) vcan0 13A#0000000000000019
(1734396280.649064) vcan0 13F#000000050000001F
(1734396280.650743) vcan0 164#0000C01AA8000031
(1734396280.650765) vcan0 17C#0000000010000012
(1734396280.652181) vcan0 183#0000000E0000101C
(1734396280.652201) vcan0 143#6B6B00D1
(1734396280.654149) vcan0 095#800007F400000008
(1734396280.656064) vcan0 039#001B
(1734396280.656091) vcan0 166#D0320018
(1734396280.658108) vcan0 158#0000000000000019
(1734396280.658148) vcan0 161#000005500108001C
(1734396280.658159) vcan0 191#010090A1410003
(1734396280.658167) vcan0 164#0000C01AA8000004
(1734396280.660036) vcan0 133#00000000A7
(1734396280.660073) vcan0 136#000200000000002A
(1734396280.660086) vcan0 13A#0000000000000028
(1734396280.660095) vcan0 13F#000000050000002E
(1734396280.660108) vcan0 17C#0000000010000021
(1734396280.660119) vcan0 18E#00006B
(1734396280.660130) vcan0 1CF#80050000001E
(1734396280.660144) vcan0 1DC#0200001B
(1734396280.662998) vcan0 183#0000000A0000102F
(1734396280.663022) vcan0 143#6B6B00E0
(1734396280.671003) vcan0 095#800007F400000017
(1734396280.671028) vcan0 1A4#000000080000003E
(1734396280.671035) vcan0 1AA#7FFF00000000673F
(1734396280.671040) vcan0 1B0#000F0000000175
(1734396280.671044) vcan0 1D0#000000000000000A
(1734396280.671049) vcan0 166#D0320027
(1734396280.671055) vcan0 158#0000000000000028
(1734396280.671060) vcan0 161#000005500108002B
(1734396280.671064) vcan0 191#010090A1410012
(1734396280.671069) vcan0 164#0000C01AA8000013
(1734396280.671074) vcan0 133#00000000B6
(1734396280.671079) vcan0 136#0002000000000039
(1734396280.671083) vcan0 13A#0000000000000037
(1734396280.671089) vcan0 13F#000000050000003D
(1734396280.671094) vcan0 17C#0000000010000030
(1734396280.671098) vcan0 18E#00007A
(1734396280.671104) vcan0 294#040B0002CF5A001D
(1734396280.671110) vcan0 21E#03E83745220610
(1734396280.671114) vcan0 039#002A
(1734396280.671119) vcan0 183#0000000F00001039
(1734396280.673629) vcan0 143#6B6B00FF
(1734396280.673653) vcan0 095#800007F400000026
(1734396280.678023) vcan0 166#D0320036
(1734396280.678053) vcan0 158#0000000000000037
(1734396280.678060) vcan0 161#000005500108003A
(1734396280.678065) vcan0 191#010090A1410021
(1734396280.678071) vcan0 164#0000C01AA8000022
(1734396280.683770) vcan0 133#0000000089
(1734396280.683801) vcan0 136#000200000000000C
(1734396280.683807) vcan0 13A#000000000000000A
(1734396280.683812) vcan0 13F#0000000500000000
(1734396280.683817) vcan0 17C#0000000010000003
(1734396280.683821) vcan0 18E#00004D
(1734396280.683826) vcan0 1CF#80050000002D
(1734396280.683832) vcan0 1DC#0200002A
(1734396280.683837) vcan0 183#0000001300001007
(1734396280.683841) vcan0 143#6B6B00C2
(1734396280.683846) vcan0 333#0000000000003C
(1734396280.683851) vcan0 095#800007F400000035
(1734396280.685027) vcan0 1A4#0000000800000001
(1734396280.685048) vcan0 1AA#7FFF000000006801
(1734396280.685053) vcan0 1B0#000F0000000148
(1734396280.685057) vcan0 1D0#000000000000000A
(1734396280.686840) vcan0 166#D0320009
(1734396280.688502) vcan0 158#000000000000000A
(1734396280.688523) vcan0 161#000005500108000D
(1734396280.688529) vcan0 191#010090A1410030
(1734396280.688533) vcan0 133#0000000098
(1734396280.688538) vcan0 136#000200000000001B
(1734396280.701739) vcan0 244#11223344
(1734396280.822209) vcan0 244#11223344
(1734396280.941508) vcan0 244#11223344
(1734396281.052250) vcan0 244#11223344
(1734396281.099771) vcan0 100#FFFFFFFF
(1734396281.164053) vcan0 244#11223344
(1734396281.275515) vcan0 244#11223344
(1734396281.389300) vcan0 244#11223344
(1734396281.500036) vcan0 244#11223344
(1734396281.611914) vcan0 100#FFFFFFFF
(1734396281.613251) vcan0 244#11223344
(1734396281.656080) vcan0 244#ADBCCCDD
(1734396281.744625) vcan0 244#11223344
(1734396281.857311) vcan0 244#11223344
(1734396281.969430) vcan0 244#11223344
(1734396282.079761) vcan0 244#11223344
(1734396282.122902) vcan0 100#FFFFFFFF
(1734396282.191754) vcan0 244#11223344
(1734396282.303109) vcan0 244#11223344
(1734396282.418393) vcan0 244#11223344
(1734396282.531541) vcan0 244#11223344
(1734396282.569510) vcan0 244#ADBCCCDD
(1734396282.633840) vcan0 100#FFFFFFFF
(1734396282.643466) vcan0 244#11223344
(1734396282.755408) vcan0 244#11223344
(1734396282.868868) vcan0 244#11223344
(1734396282.982111) vcan0 244#11223344
(1734396283.093617) vcan0 244#11223344
(1734396283.146487) vcan0 100#FFFFFFFF
(1734396283.205207) vcan0 244#11223344
(1734396283.319314) vcan0 244#11223344
(1734396283.430586) vcan0 244#11223344
(1734396283.482137) vcan0 244#ADBCCCDD
(1734396283.541624) vcan0 244#11223344
(1734396283.654691) vcan0 244#11223344
(1734396283.659571) vcan0 100#FFFFFFFF
(1734396283.769464) vcan0 244#11223344
(1734396283.882524) vcan0 244#11223344
(1734396283.994983) vcan0 244#11223344
(1734396284.106055) vcan0 244#11223344
(1734396284.173305) vcan0 100#FFFFFFFF
(1734396284.217600) vcan0 244#11223344
(1734396284.327581) vcan0 244#11223344
(1734396284.399775) vcan0 244#ADBCCCDD
(1734396284.442058) vcan0 244#11223344
(1734396284.553404) vcan0 244#11223344
(1734396284.667138) vcan0 244#11223344
(1734396284.686856) vcan0 100#FFFFFFFF
(1734396284.778095) vcan0 244#11223344
(1734396284.889572) vcan0 244#11223344
(1734396285.001838) vcan0 244#11223344
(1734396285.113448) vcan0 244#11223344
(1734396285.202814) vcan0 100#FFFFFFFF
(1734396285.223652) vcan0 244#11223344
(1734396285.315575) vcan0 244#ADBCCCDD
(1734396285.334638) vcan0 244#11223344
(1734396285.447616) vcan0 244#11223344
(1734396285.561854) vcan0 244#11223344
(1734396285.675519) vcan0 244#11223344
(1734396285.714332) vcan0 100#FFFFFFFF
(1734396285.787584) vcan0 244#11223344
(1734396285.902959) vcan0 244#11223344
(1734396286.020104) vcan0 244#11223344
(1734396286.133802) vcan0 244#11223344
(1734396286.228896) vcan0 100#FFFFFFFF
(1734396286.230237) vcan0 244#ADBCCCDD
(1734396286.245866) vcan0 244#11223344
(1734396286.357804) vcan0 244#11223344
(1734396286.469402) vcan0 244#11223344
(1734396286.580608) vcan0 244#11223344
(1734396286.693023) vcan0 244#11223344
(1734396286.743218) vcan0 100#FFFFFFFF
(1734396286.805795) vcan0 244#11223344
(1734396286.917684) vcan0 244#11223344
(1734396287.029937) vcan0 244#11223344
(1734396287.142956) vcan0 244#ADBCCCDD
(1734396287.165582) vcan0 244#11223344
(1734396287.256972) vcan0 100#FFFFFFFF
(1734396287.277529) vcan0 244#11223344
(1734396287.388205) vcan0 244#11223344
(1734396287.501065) vcan0 244#11223344
(1734396287.613281) vcan0 244#11223344
(1734396287.726043) vcan0 244#11223344
(1734396287.767798) vcan0 100#FFFFFFFF
(1734396287.837235) vcan0 244#11223344
(1734396287.949109) vcan0 244#11223344
(1734396288.059862) vcan0 244#11223344
(1734396288.078145) vcan0 244#ADBCCCDD
(1734396288.174393) vcan0 244#11223344
(1734396288.294475) vcan0 244#11223344
(1734396288.295118) vcan0 100#FFFFFFFF
(1734396288.411147) vcan0 244#11223344
(1734396288.526026) vcan0 244#11223344
(1734396288.639174) vcan0 244#11223344
(1734396288.751661) vcan0 244#11223344
(1734396288.805544) vcan0 100#FFFFFFFF
(1734396288.865443) vcan0 244#11223344
(1734396288.981502) vcan0 244#11223344
(1734396288.989785) vcan0 244#ADBCCCDD
(1734396289.094443) vcan0 244#11223344
(1734396289.207902) vcan0 244#11223344
(1734396289.318818) vcan0 100#FFFFFFFF
(1734396289.323401) vcan0 244#11223344
(1734396289.438019) vcan0 244#11223344
(1734396289.550886) vcan0 244#11223344
(1734396289.663083) vcan0 244#11223344
(1734396289.778468) vcan0 244#11223344
(1734396289.832888) vcan0 100#FFFFFFFF
(1734396289.895294) vcan0 244#11223344
(1734396289.904727) vcan0 244#ADBCCCDD
(1734396290.010327) vcan0 244#11223344
(1734396290.124508) vcan0 244#11223344
(1734396290.238788) vcan0 244#11223344
(1734396290.345607) vcan0 100#FFFFFFFF
(1734396290.353544) vcan0 244#11223344
(1734396290.466220) vcan0 244#11223344
(1734396290.578976) vcan0 244#11223344
(1734396290.693744) vcan0 244#11223344
(1734396290.806706) vcan0 244#11223344
(1734396290.816489) vcan0 244#ADBCCCDD
(1734396290.860474) vcan0 100#FFFFFFFF
(1734396290.920614) vcan0 244#11223344
(1734396291.035537) vcan0 244#11223344
(1734396291.150370) vcan0 244#11223344
(1734396291.264510) vcan0 244#11223344
(1734396291.374443) vcan0 100#FFFFFFFF
(1734396291.379151) vcan0 244#11223344
(1734396291.494666) vcan0 244#11223344
(1734396291.619300) vcan0 244#11223344
(1734396291.731358) vcan0 244#ADBCCCDD
(1734396291.733271) vcan0 244#11223344
(1734396291.847707) vcan0 244#11223344
(1734396291.889443) vcan0 100#FFFFFFFF
(1734396291.961792) vcan0 244#11223344
(1734396292.074195) vcan0 244#11223344
(1734396292.187045) vcan0 244#11223344
(1734396292.301852) vcan0 244#11223344
(1734396292.404130) vcan0 100#FFFFFFFF
(1734396292.414098) vcan0 244#11223344
(1734396292.526202) vcan0 244#11223344
(1734396292.639227) vcan0 244#11223344
(1734396292.646671) vcan0 244#ADBCCCDD
(1734396292.753583) vcan0 244#11223344
(1734396292.866901) vcan0 244#11223344
(1734396292.918502) vcan0 100#FFFFFFFF
(1734396292.981520) vcan0 244#11223344
(1734396293.095319) vcan0 244#11223344
(1734396293.207474) vcan0 244#11223344
(1734396293.321826) vcan0 244#11223344
(1734396293.432393) vcan0 100#FFFFFFFF
(1734396293.434668) vcan0 244#11223344
(1734396293.548336) vcan0 244#11223344
(1734396293.558692) vcan0 244#ADBCCCDD
(1734396293.663488) vcan0 244#11223344
(1734396293.778332) vcan0 244#11223344
(1734396293.891899) vcan0 244#11223344
(1734396293.945751) vcan0 100#FFFFFFFF
(1734396294.007508) vcan0 244#11223344
(1734396294.121638) vcan0 244#11223344
(1734396294.233847) vcan0 244#11223344
(1734396294.348361) vcan0 244#11223344
(1734396294.461247) vcan0 100#FFFFFFFF
(1734396294.462172) vcan0 244#11223344
(1734396294.473024) vcan0 244#ADBCCCDD
(1734396294.577233) vcan0 244#11223344
(1734396294.689837) vcan0 244#11223344
(1734396294.804204) vcan0 244#11223344
(1734396294.920105) vcan0 244#11223344
(1734396294.976149) vcan0 100#FFFFFFFF
(1734396295.035014) vcan0 244#11223344
(1734396295.149503) vcan0 244#11223344
(1734396295.262348) vcan0 244#11223344
(1734396295.376218) vcan0 244#11223344
(1734396295.385915) vcan0 244#ADBCCCDD
(1734396295.490814) vcan0 100#FFFFFFFF
(1734396295.490994) vcan0 244#11223344
(1734396295.604945) vcan0 244#11223344
(1734396295.718409) vcan0 244#11223344
(1734396295.832024) vcan0 244#11223344
(1734396295.946927) vcan0 244#11223344
(1734396296.007660) vcan0 100#FFFFFFFF
(1734396296.065772) vcan0 244#11223344
(1734396296.179011) vcan0 244#11223344
(1734396296.294581) vcan0 244#11223344
(1734396296.301368) vcan0 244#ADBCCCDD
(1734396296.410832) vcan0 244#11223344
(1734396296.523470) vcan0 100#FFFFFFFF
(1734396296.525182) vcan0 244#11223344
(1734396296.638859) vcan0 244#11223344
(1734396296.751730) vcan0 244#11223344
(1734396296.865289) vcan0 244#11223344
(1734396296.979547) vcan0 244#11223344
(1734396297.038240) vcan0 100#FFFFFFFF
(1734396297.095612) vcan0 244#11223344
(1734396297.207893) vcan0 244#11223344
(1734396297.214682) vcan0 244#ADBCCCDD
(1734396297.322227) vcan0 244#11223344
(1734396297.436458) vcan0 244#11223344
(1734396297.550389) vcan0 244#11223344
(1734396297.552962) vcan0 100#FFFFFFFF
(1734396297.665377) vcan0 244#11223344
(1734396297.778668) vcan0 244#11223344
(1734396297.892166) vcan0 244#11223344
(1734396298.006102) vcan0 244#11223344
(1734396298.066459) vcan0 100#FFFFFFFF
(1734396298.118885) vcan0 244#11223344
(1734396298.127017) vcan0 244#ADBCCCDD
(1734396298.235342) vcan0 244#11223344
(1734396298.353560) vcan0 244#11223344
(1734396298.467137) vcan0 244#11223344
(1734396298.581918) vcan0 100#FFFFFFFF
(1734396298.581768) vcan0 244#11223344
(1734396298.699215) vcan0 244#11223344
(1734396298.813130) vcan0 244#11223344
(1734396298.925608) vcan0 244#11223344
(1734396299.039439) vcan0 244#11223344
(1734396299.041862) vcan0 244#ADBCCCDD
(1734396299.097229) vcan0 100#FFFFFFFF
(1734396299.154513) vcan0 244#11223344
(1734396299.270855) vcan0 244#11223344
(1734396299.382688) vcan0 244#11223344
(1734396299.521973) vcan0 244#11223344
(1734396299.610478) vcan0 100#FFFFFFFF
(1734396299.635243) vcan0 244#11223344
(1734396299.749905) vcan0 244#11223344
(1734396299.864471) vcan0 244#11223344
(1734396299.956123) vcan0 244#ADBCCCDD
(1734396299.978690) vcan0 244#11223344
(1734396300.092391) vcan0 244#11223344
(1734396300.123862) vcan0 100#FFFFFFFF
(1734396300.206359) vcan0 244#11223344
(1734396300.321019) vcan0 244#11223344
(1734396300.435056) vcan0 244#11223344
(1734396300.549480) vcan0 244#11223344
(1734396300.636759) vcan0 100#FFFFFFFF
(1734396300.661385) vcan0 244#11223344
(1734396300.773456) vcan0 244#11223344
(1734396300.868153) vcan0 244#ADBCCCDD
(1734396300.884446) vcan0 244#11223344
(1734396300.998322) vcan0 244#11223344
(1734396301.113811) vcan0 244#11223344
(1734396301.149204) vcan0 100#FFFFFFFF
(1734396301.226333) vcan0 244#11223344
(1734396301.338217) vcan0 244#11223344
(1734396301.450078) vcan0 244#11223344
(1734396301.562812) vcan0 244#11223344
(1734396301.663641) vcan0 100#FFFFFFFF
(1734396301.673919) vcan0 244#11223344
(1734396301.782019) vcan0 244#ADBCCCDD
(1734396301.789528) vcan0 244#11223344
(1734396301.900979) vcan0 244#11223344
